
T1DC0 000:434 SEGGER J-Link V4.80g Log File (0000ms, 0271ms total)
T1DC0 000:434 DLL Compiled: Feb 13 2014 20:50:02 (0000ms, 0271ms total)
T1DC0 000:434 Logging started @ 2016-06-20 08:10 (0000ms, 0271ms total)
T1DC0 000:434 JLINK_SetWarnOutHandler(...) (0000ms, 0271ms total)
T1DC0 000:434 JLINK_OpenEx(...)
Firmware: J-Link ARM V8 compiled Nov 28 2014 13:44:46
Hardware: V8.00
S/N: 286370559
Feature(s): RDI,FlashDL,FlashBP,JFlash  returns O.K. (0268ms, 0539ms total)
T1DC0 000:702 JLINK_SetErrorOutHandler(...) (0000ms, 0539ms total)
T1DC0 000:702 JLINK_ExecCommand("ProjectFile = "F:\Basketball_Robot\Basketball_Robot_Slave\Slave_basketball_bot_controller\Slave_basketball_bot_controller\SLAVE_Basketball_bot_controller\USER\JLinkSettings.ini"", ...)  returns 0x00 (0000ms, 0539ms total)
T1DC0 000:709 JLINK_ExecCommand("Device = STM32F407ZG", ...)Device "STM32F407ZG" selected (1024 KB flash, 128 KB RAM).  returns 0x00 (0011ms, 0550ms total)
T1DC0 000:720 JLINK_ExecCommand("DisableConnectionTimeout", ...)  returns 0x01 (0000ms, 0550ms total)
T1DC0 000:720 JLINK_GetHardwareVersion()  returns 0x13880 (0000ms, 0550ms total)
T1DC0 000:720 JLINK_GetDLLVersion()  returns 48007 (0000ms, 0550ms total)
T1DC0 000:720 JLINK_GetFirmwareString(...) (0000ms, 0550ms total)
T1DC0 000:729 JLINK_GetDLLVersion()  returns 48007 (0000ms, 0550ms total)
T1DC0 000:729 JLINK_GetCompileDateTime() (0000ms, 0550ms total)
T1DC0 000:730 JLINK_GetFirmwareString(...) (0000ms, 0550ms total)
T1DC0 000:733 JLINK_GetHardwareVersion()  returns 0x13880 (0000ms, 0550ms total)
T1DC0 000:741 JLINK_TIF_Select(JLINKARM_TIF_SWD)  returns 0x00 (0002ms, 0552ms total)
T1DC0 000:743 JLINK_SetSpeed(500) (0000ms, 0552ms total)
T1DC0 000:743 JLINK_GetId() >0x108 TIF>Found SWD-DP with ID 0x2BA01477 >0x0D TIF> >0x28 TIF> >0x0D TIF> >0x28 TIF> >0x0D TIF> >0x21 TIF> >0x0D TIF> >0x28 TIF> >0x0D TIF> >0x28 TIF> >0x0D TIF> >0x28 TIF> >0x0D TIF> >0x21 TIF> >0x0D TIF> >0x21 TIF> >0x0D TIF> >0x28 TIF> >0x0D TIF> >0x21 TIF> >0x0D TIF> >0x21 TIF> >0x0D TIF> >0x28 TIF> >0x0D TIF> >0x21 TIF> >0x0D TIF> >0x21 TIF> >0x108 TIF>Found SWD-DP with ID 0x2BA01477 >0x0D TIF> >0x21 TIF> >0x0D TIF> >0x28 TIF> >0x0D TIF> >0x28 TIF> >0x0D TIF> >0x21 TIF>
 >0x0D TIF> >0x28 TIF> >0x0D TIF> >0x21 TIF> >0x0D TIF> >0x21 TIF> >0x0D TIF> >0x21 TIF> >0x0D TIF> >0x21 TIF> >0x0D TIF> >0x28 TIF> >0x0D TIF> >0x28 TIF> >0x0D TIF> >0x21 TIF> >0x0D TIF> >0x28 TIF> >0x0D TIF> >0x28 TIF> >0x0D TIF> >0x28 TIF> >0x0D TIF> >0x21 TIF> >0x0D TIF> >0x21 TIF> >0x0D TIF> >0x28 TIF> >0x0D TIF> >0x21 TIF> >0x0D TIF> >0x21 TIF>Found Cortex-M4 r0p1, Little endian. -- CPU_WriteMem(4 bytes @ 0xE0002000) -- CPU_ReadMem(4 bytes @ 0xE000EDF0) -- CPU_ReadMem(4 bytes @ 0xE0002000)
FPUnit: 6 code (BP) slots and 2 literal slots -- CPU_ReadMem(4 bytes @ 0xE000EDFC) -- CPU_ReadMem(4 bytes @ 0xE0001000) -- CPU_WriteMem(4 bytes @ 0xE0001000) -- CPU_ReadMem(4 bytes @ 0xE00FF010)TPIU fitted. -- CPU_ReadMem(4 bytes @ 0xE00FF014)ETM fitted. -- CPU_ReadMem(4 bytes @ 0xE00FF018) >0x0D TIF> >0x21 TIF>  returns 0x2BA01477 (0052ms, 0604ms total)
T1DC0 000:795 JLINK_GetDeviceFamily()  returns 14 (0000ms, 0604ms total)
T1DC0 000:798 JLINK_ReadMem (0xE00FFFF0, 0x0010 Bytes, ...) -- CPU is running -- CPU_ReadMem(16 bytes @ 0xE00FFFF0) -- Data:  0D 00 00 00 10 00 00 00 05 00 00 00 B1 00 00 00  returns 0x00 (0001ms, 0605ms total)
T1DC0 000:799 JLINK_ReadMem (0xE00FFFD0, 0x0020 Bytes, ...) -- CPU is running -- CPU_ReadMem(32 bytes @ 0xE00FFFD0) -- Data:  00 00 00 00 00 00 00 00 00 00 00 00 00 00 00 00 ...  returns 0x00 (0002ms, 0607ms total)
T1DC0 000:801 JLINK_ReadMem (0xE00FF000, 0x0018 Bytes, ...) -- CPU is running -- CPU_ReadMem(24 bytes @ 0xE00FF000) -- Data:  03 F0 F0 FF 03 20 F0 FF 03 30 F0 FF 03 10 F0 FF ...  returns 0x00 (0002ms, 0609ms total)
T1DC0 000:803 JLINK_ReadMemU32(0xE000ED00, 0x0001 Items, ...) -- CPU is running -- CPU_ReadMem(4 bytes @ 0xE000ED00) -- Data:  41 C2 0F 41  returns 0x01 (0001ms, 0610ms total)
T1DC0 000:804 JLINK_ReadMemU32(0xE000EF40, 0x0001 Items, ...) -- CPU is running -- CPU_ReadMem(4 bytes @ 0xE000EF40) -- Data:  21 00 11 10  returns 0x01 (0001ms, 0611ms total)
T1DC0 000:805 JLINK_ReadMemU32(0xE000EF44, 0x0001 Items, ...) -- CPU is running -- CPU_ReadMem(4 bytes @ 0xE000EF44) -- Data:  11 00 00 11  returns 0x01 (0001ms, 0612ms total)
T1DC0 000:806 JLINK_SetResetType(JLINKARM_RESET_TYPE_NORMAL)  returns JLINKARM_RESET_TYPE_NORMAL (0000ms, 0612ms total)
T1DC0 000:806 JLINK_Reset() -- CPU is running -- CPU_WriteMem(4 bytes @ 0xE000EDF0) -- CPU is running -- CPU_WriteMem(4 bytes @ 0xE000EDFC) >0x35 TIF> -- CPU is running -- CPU_WriteMem(4 bytes @ 0xE000ED0C) -- CPU is running -- CPU_ReadMem(4 bytes @ 0xE000EDF0) -- CPU is running -- CPU_ReadMem(4 bytes @ 0xE000EDF0) -- CPU is running -- CPU_WriteMem(4 bytes @ 0xE000EDF0) -- CPU is running -- CPU_WriteMem(4 bytes @ 0xE000EDFC) -- CPU is running -- CPU_ReadMem(4 bytes @ 0xE000EDF0)
 -- CPU_WriteMem(4 bytes @ 0xE0002000) -- CPU_ReadMem(4 bytes @ 0xE000EDFC) -- CPU_ReadMem(4 bytes @ 0xE0001000) (0029ms, 0641ms total)
T1DC0 000:835 JLINK_Halt()  returns 0x00 (0000ms, 0641ms total)
T1DC0 000:835 JLINK_IsHalted()  returns TRUE (0000ms, 0641ms total)
T1DC0 000:835 JLINK_ReadMemU32(0xE000EDF0, 0x0001 Items, ...) -- CPU_ReadMem(4 bytes @ 0xE000EDF0) -- Data:  03 00 03 00  returns 0x01 (0001ms, 0642ms total)
T1DC0 000:836 JLINK_WriteU32(0xE000EDF0, 0xA05F0003) -- CPU_WriteMem(4 bytes @ 0xE000EDF0)  returns 0x00 (0001ms, 0643ms total)
T1DC0 000:837 JLINK_WriteU32(0xE000EDFC, 0x01000000) -- CPU_WriteMem(4 bytes @ 0xE000EDFC)  returns 0x00 (0001ms, 0644ms total)
T1DC0 000:847 JLINK_GetHWStatus(...)  returns 0x00 (0000ms, 0644ms total)
T1DC0 000:853 JLINK_GetNumBPUnits(Type = 0xFFFFFF00)  returns 0x06 (0000ms, 0644ms total)
T1DC0 000:853 JLINK_GetNumBPUnits(Type = 0xF0)  returns 0x2000 (0000ms, 0644ms total)
T1DC0 000:853 JLINK_GetNumWPUnits()  returns 0x04 (0000ms, 0644ms total)
T1DC0 000:858 JLINK_GetSpeed()  returns 0x1F4 (0000ms, 0644ms total)
T1DC0 000:862 JLINK_ReadMemU32(0xE000E004, 0x0001 Items, ...) -- CPU_ReadMem(4 bytes @ 0xE000E004) -- Data:  02 00 00 00  returns 0x01 (0001ms, 0645ms total)
T1DC0 000:863 JLINK_ReadMemU32(0xE000E004, 0x0001 Items, ...) -- CPU_ReadMem(4 bytes @ 0xE000E004) -- Data:  02 00 00 00  returns 0x01 (0001ms, 0646ms total)
T1DC0 000:864 JLINK_WriteMem(0xE0001000, 0x001C Bytes, ...) -- Data:  01 00 00 00 00 00 00 00 00 00 00 00 00 00 00 00 ... -- CPU_WriteMem(28 bytes @ 0xE0001000)  returns 0x1C (0002ms, 0648ms total)
T1DC0 000:866 JLINK_ReadMem (0xE0001000, 0x001C Bytes, ...) -- CPU_ReadMem(28 bytes @ 0xE0001000) -- Data:  01 00 00 40 00 00 00 00 00 00 00 00 00 00 00 00 ...  returns 0x00 (0002ms, 0650ms total)
T1DC0 000:868 JLINK_Halt()  returns 0x00 (0000ms, 0650ms total)
T1DC0 000:868 JLINK_IsHalted()  returns TRUE (0000ms, 0650ms total)
T1DC0 000:871 JLINK_WriteMem(0x20000000, 0x0180 Bytes, ...) -- Data:  00 BE 0A E0 0D 78 2D 06 68 40 08 24 40 00 00 D3 ... -- CPU_WriteMem(384 bytes @ 0x20000000)  returns 0x180 (0011ms, 0661ms total)
T1DC0 000:882 JLINK_WriteReg(R0, 0x08000000)  returns 0x00 (0000ms, 0661ms total)
T1DC0 000:882 JLINK_WriteReg(R1, 0x007A1200)  returns 0x00 (0000ms, 0661ms total)
T1DC0 000:882 JLINK_WriteReg(R2, 0x00000001)  returns 0x00 (0000ms, 0661ms total)
T1DC0 000:882 JLINK_WriteReg(R3, 0x00000000)  returns 0x00 (0000ms, 0661ms total)
T1DC0 000:882 JLINK_WriteReg(R4, 0x00000000)  returns 0x00 (0000ms, 0661ms total)
T1DC0 000:882 JLINK_WriteReg(R5, 0x00000000)  returns 0x00 (0000ms, 0661ms total)
T1DC0 000:882 JLINK_WriteReg(R6, 0x00000000)  returns 0x00 (0000ms, 0661ms total)
T1DC0 000:882 JLINK_WriteReg(R7, 0x00000000)  returns 0x00 (0000ms, 0661ms total)
T1DC0 000:882 JLINK_WriteReg(R8, 0x00000000)  returns 0x00 (0000ms, 0661ms total)
T1DC0 000:882 JLINK_WriteReg(R9, 0x2000017C)  returns 0x00 (0000ms, 0661ms total)
T1DC0 000:882 JLINK_WriteReg(R10, 0x00000000)  returns 0x00 (0000ms, 0661ms total)
T1DC0 000:882 JLINK_WriteReg(R11, 0x00000000)  returns 0x00 (0000ms, 0661ms total)
T1DC0 000:882 JLINK_WriteReg(R12, 0x00000000)  returns 0x00 (0000ms, 0661ms total)
T1DC0 000:882 JLINK_WriteReg(R13 (SP), 0x20001000)  returns 0x00 (0000ms, 0661ms total)
T1DC0 000:882 JLINK_WriteReg(R14, 0x20000001)  returns 0x00 (0000ms, 0661ms total)
T1DC0 000:882 JLINK_WriteReg(R15 (PC), 0x20000054)  returns 0x00 (0000ms, 0661ms total)
T1DC0 000:882 JLINK_WriteReg(XPSR, 0x01000000)  returns 0x00 (0000ms, 0661ms total)
T1DC0 000:882 JLINK_WriteReg(MSP, 0x20001000)  returns 0x00 (0000ms, 0661ms total)
T1DC0 000:882 JLINK_WriteReg(PSP, 0x20001000)  returns 0x00 (0000ms, 0661ms total)
T1DC0 000:882 JLINK_WriteReg(CFBP, 0x00000000)  returns 0x00 (0000ms, 0661ms total)
T1DC0 000:882 JLINK_SetBPEx(Addr = 0x20000000, Type = 0xFFFFFFF2) -- CPU_ReadMem(2 bytes @ 0x20000000)  returns 0x00000001 (0002ms, 0663ms total)
T1DC0 000:884 JLINK_Go() -- CPU_WriteMem(2 bytes @ 0x20000000) -- CPU_WriteMem(4 bytes @ 0xE0002008) -- CPU_WriteMem(4 bytes @ 0xE000200C) -- CPU_WriteMem(4 bytes @ 0xE0002010) -- CPU_WriteMem(4 bytes @ 0xE0002014) -- CPU_WriteMem(4 bytes @ 0xE0002018) -- CPU_WriteMem(4 bytes @ 0xE000201C) -- CPU_WriteMem(4 bytes @ 0xE0001004) (0012ms, 0675ms total)
T1DC0 000:896 JLINK_IsHalted() -- CPU_ReadMem(2 bytes @ 0x20000000)  returns TRUE (0009ms, 0684ms total)
T1DC0 000:905 JLINK_ReadReg(R15 (PC))  returns 0x20000000 (0000ms, 0675ms total)
T1DC0 000:905 JLINK_ClrBPEx(BPHandle = 0x00000001)  returns 0x00 (0000ms, 0675ms total)
T1DC0 000:905 JLINK_ReadReg(R0)  returns 0x00000000 (0000ms, 0675ms total)
T1DC0 000:905 JLINK_WriteReg(R0, 0x08000000)  returns 0x00 (0000ms, 0675ms total)
T1DC0 000:905 JLINK_WriteReg(R1, 0x00004000)  returns 0x00 (0000ms, 0675ms total)
T1DC0 000:905 JLINK_WriteReg(R2, 0x000000FF)  returns 0x00 (0000ms, 0675ms total)
T1DC0 000:905 JLINK_WriteReg(R3, 0x00000000)  returns 0x00 (0000ms, 0675ms total)
T1DC0 000:905 JLINK_WriteReg(R4, 0x00000000)  returns 0x00 (0000ms, 0675ms total)
T1DC0 000:905 JLINK_WriteReg(R5, 0x00000000)  returns 0x00 (0000ms, 0675ms total)
T1DC0 000:905 JLINK_WriteReg(R6, 0x00000000)  returns 0x00 (0001ms, 0676ms total)
T1DC0 000:906 JLINK_WriteReg(R7, 0x00000000)  returns 0x00 (0000ms, 0676ms total)
T1DC0 000:906 JLINK_WriteReg(R8, 0x00000000)  returns 0x00 (0000ms, 0676ms total)
T1DC0 000:906 JLINK_WriteReg(R9, 0x2000017C)  returns 0x00 (0000ms, 0676ms total)
T1DC0 000:906 JLINK_WriteReg(R10, 0x00000000)  returns 0x00 (0000ms, 0676ms total)
T1DC0 000:906 JLINK_WriteReg(R11, 0x00000000)  returns 0x00 (0000ms, 0676ms total)
T1DC0 000:906 JLINK_WriteReg(R12, 0x00000000)  returns 0x00 (0000ms, 0676ms total)
T1DC0 000:906 JLINK_WriteReg(R13 (SP), 0x20001000)  returns 0x00 (0000ms, 0676ms total)
T1DC0 000:906 JLINK_WriteReg(R14, 0x20000001)  returns 0x00 (0000ms, 0676ms total)
T1DC0 000:906 JLINK_WriteReg(R15 (PC), 0x20000020)  returns 0x00 (0000ms, 0676ms total)
T1DC0 000:906 JLINK_WriteReg(XPSR, 0x01000000)  returns 0x00 (0000ms, 0676ms total)
T1DC0 000:906 JLINK_WriteReg(MSP, 0x20001000)  returns 0x00 (0000ms, 0676ms total)
T1DC0 000:906 JLINK_WriteReg(PSP, 0x20001000)  returns 0x00 (0000ms, 0676ms total)
T1DC0 000:906 JLINK_WriteReg(CFBP, 0x00000000)  returns 0x00 (0000ms, 0676ms total)
T1DC0 000:906 JLINK_SetBPEx(Addr = 0x20000000, Type = 0xFFFFFFF2)  returns 0x00000002 (0000ms, 0676ms total)
T1DC0 000:906 JLINK_Go() (0003ms, 0679ms total)
T1DC0 000:909 JLINK_IsHalted() -- CPU_ReadMem(2 bytes @ 0x20000000)  returns TRUE (0009ms, 0688ms total)
T1DC0 000:918 JLINK_ReadReg(R15 (PC))  returns 0x20000000 (0000ms, 0679ms total)
T1DC0 000:918 JLINK_ClrBPEx(BPHandle = 0x00000002)  returns 0x00 (0000ms, 0679ms total)
T1DC0 000:918 JLINK_ReadReg(R0)  returns 0x00000001 (0000ms, 0679ms total)
T1DC0 000:918 JLINK_WriteReg(R0, 0x08000000)  returns 0x00 (0000ms, 0679ms total)
T1DC0 000:918 JLINK_WriteReg(R1, 0x00004000)  returns 0x00 (0001ms, 0680ms total)
T1DC0 000:919 JLINK_WriteReg(R2, 0x000000FF)  returns 0x00 (0000ms, 0680ms total)
T1DC0 000:919 JLINK_WriteReg(R3, 0x00000000)  returns 0x00 (0000ms, 0680ms total)
T1DC0 000:919 JLINK_WriteReg(R4, 0x00000000)  returns 0x00 (0000ms, 0680ms total)
T1DC0 000:919 JLINK_WriteReg(R5, 0x00000000)  returns 0x00 (0000ms, 0680ms total)
T1DC0 000:919 JLINK_WriteReg(R6, 0x00000000)  returns 0x00 (0000ms, 0680ms total)
T1DC0 000:919 JLINK_WriteReg(R7, 0x00000000)  returns 0x00 (0000ms, 0680ms total)
T1DC0 000:919 JLINK_WriteReg(R8, 0x00000000)  returns 0x00 (0000ms, 0680ms total)
T1DC0 000:919 JLINK_WriteReg(R9, 0x2000017C)  returns 0x00 (0000ms, 0680ms total)
T1DC0 000:919 JLINK_WriteReg(R10, 0x00000000)  returns 0x00 (0000ms, 0680ms total)
T1DC0 000:919 JLINK_WriteReg(R11, 0x00000000)  returns 0x00 (0000ms, 0680ms total)
T1DC0 000:919 JLINK_WriteReg(R12, 0x00000000)  returns 0x00 (0000ms, 0680ms total)
T1DC0 000:919 JLINK_WriteReg(R13 (SP), 0x20001000)  returns 0x00 (0000ms, 0680ms total)
T1DC0 000:919 JLINK_WriteReg(R14, 0x20000001)  returns 0x00 (0000ms, 0680ms total)
T1DC0 000:919 JLINK_WriteReg(R15 (PC), 0x200000BC)  returns 0x00 (0000ms, 0680ms total)
T1DC0 000:919 JLINK_WriteReg(XPSR, 0x01000000)  returns 0x00 (0000ms, 0680ms total)
T1DC0 000:919 JLINK_WriteReg(MSP, 0x20001000)  returns 0x00 (0000ms, 0680ms total)
T1DC0 000:919 JLINK_WriteReg(PSP, 0x20001000)  returns 0x00 (0000ms, 0680ms total)
T1DC0 000:919 JLINK_WriteReg(CFBP, 0x00000000)  returns 0x00 (0000ms, 0680ms total)
T1DC0 000:919 JLINK_SetBPEx(Addr = 0x20000000, Type = 0xFFFFFFF2)  returns 0x00000003 (0000ms, 0680ms total)
T1DC0 000:919 JLINK_Go() (0003ms, 0683ms total)
T1DC0 000:922 JLINK_IsHalted()  returns FALSE (0001ms, 0684ms total)
T1DC0 001:032 JLINK_IsHalted()  returns FALSE (0001ms, 0684ms total)
T1DC0 001:036 JLINK_IsHalted()  returns FALSE (0001ms, 0684ms total)
T1DC0 001:039 JLINK_IsHalted()  returns FALSE (0001ms, 0684ms total)
T1DC0 001:042 JLINK_IsHalted()  returns FALSE (0000ms, 0683ms total)
T1DC0 001:044 JLINK_IsHalted()  returns FALSE (0001ms, 0684ms total)
T1DC0 001:047 JLINK_IsHalted()  returns FALSE (0001ms, 0684ms total)
T1DC0 001:050 JLINK_IsHalted()  returns FALSE (0001ms, 0684ms total)
T1DC0 001:059 JLINK_IsHalted()  returns FALSE (0001ms, 0684ms total)
T1DC0 001:062 JLINK_IsHalted()  returns FALSE (0001ms, 0684ms total)
T1DC0 001:065 JLINK_IsHalted()  returns FALSE (0000ms, 0683ms total)
T1DC0 001:069 JLINK_IsHalted()  returns FALSE (0001ms, 0684ms total)
T1DC0 001:072 JLINK_IsHalted()  returns FALSE (0000ms, 0683ms total)
T1DC0 001:074 JLINK_IsHalted()  returns FALSE (0000ms, 0683ms total)
T1DC0 001:076 JLINK_IsHalted()  returns FALSE (0001ms, 0684ms total)
T1DC0 001:079 JLINK_IsHalted()  returns FALSE (0000ms, 0683ms total)
T1DC0 001:089 JLINK_IsHalted()  returns FALSE (0001ms, 0684ms total)
T1DC0 001:092 JLINK_IsHalted()  returns FALSE (0001ms, 0684ms total)
T1DC0 001:095 JLINK_IsHalted()  returns FALSE (0000ms, 0683ms total)
T1DC0 001:097 JLINK_IsHalted()  returns FALSE (0000ms, 0683ms total)
T1DC0 001:107 JLINK_IsHalted()  returns FALSE (0001ms, 0684ms total)
T1DC0 001:110 JLINK_IsHalted()  returns FALSE (0001ms, 0684ms total)
T1DC0 001:120 JLINK_IsHalted()  returns FALSE (0001ms, 0684ms total)
T1DC0 001:123 JLINK_IsHalted()  returns FALSE (0000ms, 0683ms total)
T1DC0 001:125 JLINK_IsHalted()  returns FALSE (0000ms, 0683ms total)
T1DC0 001:131 JLINK_IsHalted()  returns FALSE (0001ms, 0684ms total)
T1DC0 001:134 JLINK_IsHalted()  returns FALSE (0001ms, 0684ms total)
T1DC0 001:137 JLINK_IsHalted()  returns FALSE (0001ms, 0684ms total)
T1DC0 001:139 JLINK_IsHalted()  returns FALSE (0001ms, 0684ms total)
T1DC0 001:144 JLINK_IsHalted()  returns FALSE (0000ms, 0683ms total)
T1DC0 001:146 JLINK_IsHalted()  returns FALSE (0001ms, 0684ms total)
T1DC0 001:149 JLINK_IsHalted()  returns FALSE (0000ms, 0683ms total)
T1DC0 001:151 JLINK_IsHalted()  returns FALSE (0001ms, 0684ms total)
T1DC0 001:154 JLINK_IsHalted()  returns FALSE (0000ms, 0683ms total)
T1DC0 001:156 JLINK_IsHalted()  returns FALSE (0000ms, 0683ms total)
T1DC0 001:158 JLINK_IsHalted()  returns FALSE (0000ms, 0683ms total)
T1DC0 001:161 JLINK_IsHalted()  returns FALSE (0000ms, 0683ms total)
T1DC0 001:168 JLINK_IsHalted()  returns FALSE (0001ms, 0684ms total)
T1DC0 001:171 JLINK_IsHalted()  returns FALSE (0000ms, 0683ms total)
T1DC0 001:173 JLINK_IsHalted()  returns FALSE (0001ms, 0684ms total)
T1DC0 001:176 JLINK_IsHalted()  returns FALSE (0001ms, 0684ms total)
T1DC0 001:179 JLINK_IsHalted()  returns FALSE (0000ms, 0683ms total)
T1DC0 001:181 JLINK_IsHalted()  returns FALSE (0001ms, 0684ms total)
T1DC0 001:183 JLINK_IsHalted()  returns FALSE (0001ms, 0684ms total)
T1DC0 001:186 JLINK_IsHalted()  returns FALSE (0001ms, 0684ms total)
T1DC0 001:197 JLINK_IsHalted()  returns FALSE (0001ms, 0684ms total)
T1DC0 001:200 JLINK_IsHalted()  returns FALSE (0001ms, 0684ms total)
T1DC0 001:203 JLINK_IsHalted()  returns FALSE (0001ms, 0684ms total)
T1DC0 001:206 JLINK_IsHalted()  returns FALSE (0000ms, 0683ms total)
T1DC0 001:212 JLINK_IsHalted()  returns FALSE (0001ms, 0684ms total)
T1DC0 001:215 JLINK_IsHalted()  returns FALSE (0001ms, 0684ms total)
T1DC0 001:218 JLINK_IsHalted()  returns FALSE (0000ms, 0683ms total)
T1DC0 001:220 JLINK_IsHalted()  returns FALSE (0000ms, 0683ms total)
T1DC0 001:222 JLINK_IsHalted()  returns FALSE (0001ms, 0685ms total)
T1DC0 001:231 JLINK_IsHalted()  returns FALSE (0001ms, 0685ms total)
T1DC0 001:234 JLINK_IsHalted()  returns FALSE (0001ms, 0685ms total)
T1DC0 001:237 JLINK_IsHalted()  returns FALSE (0001ms, 0685ms total)
T1DC0 001:243 JLINK_IsHalted()  returns FALSE (0001ms, 0685ms total)
T1DC0 001:246 JLINK_IsHalted()  returns FALSE (0001ms, 0685ms total)
T1DC0 001:249 JLINK_IsHalted() -- CPU_ReadMem(2 bytes @ 0x20000000)  returns TRUE (0009ms, 0693ms total)
T1DC0 001:258 JLINK_ReadReg(R15 (PC))  returns 0x20000000 (0000ms, 0684ms total)
T1DC0 001:258 JLINK_ClrBPEx(BPHandle = 0x00000003)  returns 0x00 (0000ms, 0684ms total)
T1DC0 001:258 JLINK_ReadReg(R0)  returns 0x00000000 (0000ms, 0684ms total)
T1DC0 001:259 JLINK_WriteReg(R0, 0x08004000)  returns 0x00 (0000ms, 0684ms total)
T1DC0 001:259 JLINK_WriteReg(R1, 0x00004000)  returns 0x00 (0000ms, 0684ms total)
T1DC0 001:259 JLINK_WriteReg(R2, 0x000000FF)  returns 0x00 (0000ms, 0684ms total)
T1DC0 001:259 JLINK_WriteReg(R3, 0x00000000)  returns 0x00 (0000ms, 0684ms total)
T1DC0 001:259 JLINK_WriteReg(R4, 0x00000000)  returns 0x00 (0000ms, 0684ms total)
T1DC0 001:259 JLINK_WriteReg(R5, 0x00000000)  returns 0x00 (0000ms, 0684ms total)
T1DC0 001:259 JLINK_WriteReg(R6, 0x00000000)  returns 0x00 (0000ms, 0684ms total)
T1DC0 001:259 JLINK_WriteReg(R7, 0x00000000)  returns 0x00 (0000ms, 0684ms total)
T1DC0 001:259 JLINK_WriteReg(R8, 0x00000000)  returns 0x00 (0000ms, 0684ms total)
T1DC0 001:259 JLINK_WriteReg(R9, 0x2000017C)  returns 0x00 (0000ms, 0684ms total)
T1DC0 001:259 JLINK_WriteReg(R10, 0x00000000)  returns 0x00 (0000ms, 0684ms total)
T1DC0 001:259 JLINK_WriteReg(R11, 0x00000000)  returns 0x00 (0000ms, 0684ms total)
T1DC0 001:259 JLINK_WriteReg(R12, 0x00000000)  returns 0x00 (0000ms, 0684ms total)
T1DC0 001:259 JLINK_WriteReg(R13 (SP), 0x20001000)  returns 0x00 (0000ms, 0684ms total)
T1DC0 001:259 JLINK_WriteReg(R14, 0x20000001)  returns 0x00 (0000ms, 0684ms total)
T1DC0 001:259 JLINK_WriteReg(R15 (PC), 0x20000020)  returns 0x00 (0000ms, 0684ms total)
T1DC0 001:259 JLINK_WriteReg(XPSR, 0x01000000)  returns 0x00 (0000ms, 0684ms total)
T1DC0 001:259 JLINK_WriteReg(MSP, 0x20001000)  returns 0x00 (0000ms, 0684ms total)
T1DC0 001:259 JLINK_WriteReg(PSP, 0x20001000)  returns 0x00 (0000ms, 0684ms total)
T1DC0 001:259 JLINK_WriteReg(CFBP, 0x00000000)  returns 0x00 (0000ms, 0684ms total)
T1DC0 001:259 JLINK_SetBPEx(Addr = 0x20000000, Type = 0xFFFFFFF2)  returns 0x00000004 (0000ms, 0684ms total)
T1DC0 001:259 JLINK_Go() (0004ms, 0688ms total)
T1DC0 001:263 JLINK_IsHalted() -- CPU_ReadMem(2 bytes @ 0x20000000)  returns TRUE (0009ms, 0697ms total)
T1DC0 001:272 JLINK_ReadReg(R15 (PC))  returns 0x20000000 (0000ms, 0688ms total)
T1DC0 001:272 JLINK_ClrBPEx(BPHandle = 0x00000004)  returns 0x00 (0000ms, 0688ms total)
T1DC0 001:272 JLINK_ReadReg(R0)  returns 0x00000001 (0000ms, 0688ms total)
T1DC0 001:272 JLINK_WriteReg(R0, 0x08004000)  returns 0x00 (0000ms, 0688ms total)
T1DC0 001:272 JLINK_WriteReg(R1, 0x00004000)  returns 0x00 (0000ms, 0688ms total)
T1DC0 001:272 JLINK_WriteReg(R2, 0x000000FF)  returns 0x00 (0000ms, 0688ms total)
T1DC0 001:272 JLINK_WriteReg(R3, 0x00000000)  returns 0x00 (0000ms, 0688ms total)
T1DC0 001:272 JLINK_WriteReg(R4, 0x00000000)  returns 0x00 (0000ms, 0688ms total)
T1DC0 001:272 JLINK_WriteReg(R5, 0x00000000)  returns 0x00 (0000ms, 0688ms total)
T1DC0 001:272 JLINK_WriteReg(R6, 0x00000000)  returns 0x00 (0000ms, 0688ms total)
T1DC0 001:272 JLINK_WriteReg(R7, 0x00000000)  returns 0x00 (0000ms, 0688ms total)
T1DC0 001:272 JLINK_WriteReg(R8, 0x00000000)  returns 0x00 (0000ms, 0688ms total)
T1DC0 001:272 JLINK_WriteReg(R9, 0x2000017C)  returns 0x00 (0000ms, 0688ms total)
T1DC0 001:272 JLINK_WriteReg(R10, 0x00000000)  returns 0x00 (0000ms, 0688ms total)
T1DC0 001:272 JLINK_WriteReg(R11, 0x00000000)  returns 0x00 (0000ms, 0688ms total)
T1DC0 001:272 JLINK_WriteReg(R12, 0x00000000)  returns 0x00 (0000ms, 0688ms total)
T1DC0 001:272 JLINK_WriteReg(R13 (SP), 0x20001000)  returns 0x00 (0000ms, 0688ms total)
T1DC0 001:272 JLINK_WriteReg(R14, 0x20000001)  returns 0x00 (0000ms, 0688ms total)
T1DC0 001:272 JLINK_WriteReg(R15 (PC), 0x200000BC)  returns 0x00 (0000ms, 0688ms total)
T1DC0 001:272 JLINK_WriteReg(XPSR, 0x01000000)  returns 0x00 (0000ms, 0688ms total)
T1DC0 001:272 JLINK_WriteReg(MSP, 0x20001000)  returns 0x00 (0000ms, 0688ms total)
T1DC0 001:272 JLINK_WriteReg(PSP, 0x20001000)  returns 0x00 (0001ms, 0689ms total)
T1DC0 001:273 JLINK_WriteReg(CFBP, 0x00000000)  returns 0x00 (0000ms, 0689ms total)
T1DC0 001:273 JLINK_SetBPEx(Addr = 0x20000000, Type = 0xFFFFFFF2)  returns 0x00000005 (0000ms, 0689ms total)
T1DC0 001:273 JLINK_Go() (0003ms, 0692ms total)
T1DC0 001:276 JLINK_IsHalted()  returns FALSE (0001ms, 0693ms total)
T1DC0 001:284 JLINK_IsHalted()  returns FALSE (0001ms, 0693ms total)
T1DC0 001:287 JLINK_IsHalted()  returns FALSE (0001ms, 0693ms total)
T1DC0 001:290 JLINK_IsHalted()  returns FALSE (0000ms, 0692ms total)
T1DC0 001:292 JLINK_IsHalted()  returns FALSE (0001ms, 0693ms total)
T1DC0 001:295 JLINK_IsHalted()  returns FALSE (0000ms, 0692ms total)
T1DC0 001:297 JLINK_IsHalted()  returns FALSE (0001ms, 0693ms total)
T1DC0 001:300 JLINK_IsHalted()  returns FALSE (0000ms, 0692ms total)
T1DC0 001:311 JLINK_IsHalted()  returns FALSE (0001ms, 0693ms total)
T1DC0 001:316 JLINK_IsHalted()  returns FALSE (0001ms, 0693ms total)
T1DC0 001:319 JLINK_IsHalted()  returns FALSE (0000ms, 0692ms total)
T1DC0 001:321 JLINK_IsHalted()  returns FALSE (0000ms, 0692ms total)
T1DC0 001:323 JLINK_IsHalted()  returns FALSE (0000ms, 0692ms total)
T1DC0 001:325 JLINK_IsHalted()  returns FALSE (0001ms, 0693ms total)
T1DC0 001:328 JLINK_IsHalted()  returns FALSE (0000ms, 0692ms total)
T1DC0 001:337 JLINK_IsHalted()  returns FALSE (0001ms, 0693ms total)
T1DC0 001:340 JLINK_IsHalted()  returns FALSE (0001ms, 0693ms total)
T1DC0 001:343 JLINK_IsHalted()  returns FALSE (0001ms, 0693ms total)
T1DC0 001:346 JLINK_IsHalted()  returns FALSE (0001ms, 0693ms total)
T1DC0 001:353 JLINK_IsHalted()  returns FALSE (0001ms, 0693ms total)
T1DC0 001:356 JLINK_IsHalted()  returns FALSE (0000ms, 0692ms total)
T1DC0 001:358 JLINK_IsHalted()  returns FALSE (0001ms, 0693ms total)
T1DC0 001:361 JLINK_IsHalted()  returns FALSE (0001ms, 0693ms total)
T1DC0 001:364 JLINK_IsHalted()  returns FALSE (0000ms, 0692ms total)
T1DC0 001:368 JLINK_IsHalted()  returns FALSE (0001ms, 0693ms total)
T1DC0 001:371 JLINK_IsHalted()  returns FALSE (0000ms, 0692ms total)
T1DC0 001:373 JLINK_IsHalted()  returns FALSE (0001ms, 0693ms total)
T1DC0 001:383 JLINK_IsHalted()  returns FALSE (0001ms, 0693ms total)
T1DC0 001:385 JLINK_IsHalted()  returns FALSE (0001ms, 0693ms total)
T1DC0 001:388 JLINK_IsHalted()  returns FALSE (0000ms, 0692ms total)
T1DC0 001:391 JLINK_IsHalted()  returns FALSE (0000ms, 0692ms total)
T1DC0 001:393 JLINK_IsHalted()  returns FALSE (0001ms, 0693ms total)
T1DC0 001:396 JLINK_IsHalted()  returns FALSE (0001ms, 0693ms total)
T1DC0 001:400 JLINK_IsHalted()  returns FALSE (0001ms, 0693ms total)
T1DC0 001:403 JLINK_IsHalted()  returns FALSE (0000ms, 0692ms total)
T1DC0 001:406 JLINK_IsHalted()  returns FALSE (0001ms, 0693ms total)
T1DC0 001:419 JLINK_IsHalted()  returns FALSE (0001ms, 0693ms total)
T1DC0 001:422 JLINK_IsHalted()  returns FALSE (0001ms, 0693ms total)
T1DC0 001:425 JLINK_IsHalted()  returns FALSE (0001ms, 0693ms total)
T1DC0 001:428 JLINK_IsHalted()  returns FALSE (0000ms, 0692ms total)
T1DC0 001:433 JLINK_IsHalted()  returns FALSE (0001ms, 0693ms total)
T1DC0 001:436 JLINK_IsHalted()  returns FALSE (0001ms, 0693ms total)
T1DC0 001:439 JLINK_IsHalted()  returns FALSE (0000ms, 0692ms total)
T1DC0 001:441 JLINK_IsHalted()  returns FALSE (0000ms, 0692ms total)
T1DC0 001:450 JLINK_IsHalted()  returns FALSE (0001ms, 0693ms total)
T1DC0 001:453 JLINK_IsHalted()  returns FALSE (0001ms, 0693ms total)
T1DC0 001:459 JLINK_IsHalted()  returns FALSE (0001ms, 0693ms total)
T1DC0 001:462 JLINK_IsHalted()  returns FALSE (0001ms, 0693ms total)
T1DC0 001:465 JLINK_IsHalted()  returns FALSE (0001ms, 0693ms total)
T1DC0 001:468 JLINK_IsHalted()  returns FALSE (0001ms, 0693ms total)
T1DC0 001:471 JLINK_IsHalted()  returns FALSE (0001ms, 0693ms total)
T1DC0 001:474 JLINK_IsHalted()  returns FALSE (0000ms, 0692ms total)
T1DC0 001:479 JLINK_IsHalted()  returns FALSE (0001ms, 0693ms total)
T1DC0 001:482 JLINK_IsHalted()  returns FALSE (0001ms, 0693ms total)
T1DC0 001:485 JLINK_IsHalted()  returns FALSE (0001ms, 0693ms total)
T1DC0 001:488 JLINK_IsHalted()  returns FALSE (0000ms, 0692ms total)
T1DC0 001:495 JLINK_IsHalted()  returns FALSE (0001ms, 0693ms total)
T1DC0 001:498 JLINK_IsHalted()  returns FALSE (0001ms, 0693ms total)
T1DC0 001:501 JLINK_IsHalted()  returns FALSE (0001ms, 0693ms total)
T1DC0 001:504 JLINK_IsHalted()  returns FALSE (0001ms, 0693ms total)
T1DC0 001:507 JLINK_IsHalted()  returns FALSE (0001ms, 0693ms total)
T1DC0 001:510 JLINK_IsHalted()  returns FALSE (0001ms, 0693ms total)
T1DC0 001:513 JLINK_IsHalted()  returns FALSE (0001ms, 0693ms total)
T1DC0 001:516 JLINK_IsHalted()  returns FALSE (0001ms, 0693ms total)
T1DC0 001:576 JLINK_IsHalted()  returns FALSE (0001ms, 0693ms total)
T1DC0 001:583 JLINK_IsHalted()  returns FALSE (0001ms, 0693ms total)
T1DC0 001:586 JLINK_IsHalted()  returns FALSE (0001ms, 0693ms total)
T1DC0 001:589 JLINK_IsHalted()  returns FALSE (0000ms, 0692ms total)
T1DC0 001:591 JLINK_IsHalted()  returns FALSE (0001ms, 0693ms total)
T1DC0 001:594 JLINK_IsHalted()  returns FALSE (0001ms, 0693ms total)
T1DC0 001:596 JLINK_IsHalted()  returns FALSE (0001ms, 0693ms total)
T1DC0 001:604 JLINK_IsHalted()  returns FALSE (0000ms, 0692ms total)
T1DC0 001:606 JLINK_IsHalted()  returns FALSE (0000ms, 0692ms total)
T1DC0 001:608 JLINK_IsHalted()  returns FALSE (0001ms, 0693ms total)
T1DC0 001:611 JLINK_IsHalted()  returns FALSE (0000ms, 0692ms total)
T1DC0 001:613 JLINK_IsHalted()  returns FALSE (0001ms, 0693ms total)
T1DC0 001:616 JLINK_IsHalted()  returns FALSE (0000ms, 0692ms total)
T1DC0 001:618 JLINK_IsHalted() -- CPU_ReadMem(2 bytes @ 0x20000000)  returns TRUE (0009ms, 0701ms total)
T1DC0 001:627 JLINK_ReadReg(R15 (PC))  returns 0x20000000 (0000ms, 0692ms total)
T1DC0 001:627 JLINK_ClrBPEx(BPHandle = 0x00000005)  returns 0x00 (0000ms, 0692ms total)
T1DC0 001:627 JLINK_ReadReg(R0)  returns 0x00000000 (0000ms, 0692ms total)
T1DC0 001:627 JLINK_WriteReg(R0, 0x00000001)  returns 0x00 (0000ms, 0692ms total)
T1DC0 001:627 JLINK_WriteReg(R1, 0x00004000)  returns 0x00 (0000ms, 0692ms total)
T1DC0 001:627 JLINK_WriteReg(R2, 0x000000FF)  returns 0x00 (0000ms, 0692ms total)
T1DC0 001:627 JLINK_WriteReg(R3, 0x00000000)  returns 0x00 (0000ms, 0692ms total)
T1DC0 001:627 JLINK_WriteReg(R4, 0x00000000)  returns 0x00 (0000ms, 0692ms total)
T1DC0 001:627 JLINK_WriteReg(R5, 0x00000000)  returns 0x00 (0000ms, 0692ms total)
T1DC0 001:627 JLINK_WriteReg(R6, 0x00000000)  returns 0x00 (0000ms, 0692ms total)
T1DC0 001:627 JLINK_WriteReg(R7, 0x00000000)  returns 0x00 (0000ms, 0692ms total)
T1DC0 001:627 JLINK_WriteReg(R8, 0x00000000)  returns 0x00 (0000ms, 0692ms total)
T1DC0 001:627 JLINK_WriteReg(R9, 0x2000017C)  returns 0x00 (0000ms, 0692ms total)
T1DC0 001:627 JLINK_WriteReg(R10, 0x00000000)  returns 0x00 (0000ms, 0692ms total)
T1DC0 001:627 JLINK_WriteReg(R11, 0x00000000)  returns 0x00 (0000ms, 0692ms total)
T1DC0 001:627 JLINK_WriteReg(R12, 0x00000000)  returns 0x00 (0000ms, 0692ms total)
T1DC0 001:627 JLINK_WriteReg(R13 (SP), 0x20001000)  returns 0x00 (0000ms, 0692ms total)
T1DC0 001:627 JLINK_WriteReg(R14, 0x20000001)  returns 0x00 (0000ms, 0692ms total)
T1DC0 001:628 JLINK_WriteReg(R15 (PC), 0x20000082)  returns 0x00 (0000ms, 0692ms total)
T1DC0 001:628 JLINK_WriteReg(XPSR, 0x01000000)  returns 0x00 (0000ms, 0692ms total)
T1DC0 001:628 JLINK_WriteReg(MSP, 0x20001000)  returns 0x00 (0000ms, 0692ms total)
T1DC0 001:628 JLINK_WriteReg(PSP, 0x20001000)  returns 0x00 (0000ms, 0692ms total)
T1DC0 001:628 JLINK_WriteReg(CFBP, 0x00000000)  returns 0x00 (0000ms, 0692ms total)
T1DC0 001:628 JLINK_SetBPEx(Addr = 0x20000000, Type = 0xFFFFFFF2)  returns 0x00000006 (0000ms, 0692ms total)
T1DC0 001:628 JLINK_Go() (0003ms, 0695ms total)
T1DC0 001:631 JLINK_IsHalted() -- CPU_ReadMem(2 bytes @ 0x20000000)  returns TRUE (0010ms, 0705ms total)
T1DC0 001:641 JLINK_ReadReg(R15 (PC))  returns 0x20000000 (0000ms, 0695ms total)
T1DC0 001:641 JLINK_ClrBPEx(BPHandle = 0x00000006)  returns 0x00 (0000ms, 0695ms total)
T1DC0 001:641 JLINK_ReadReg(R0)  returns 0x00000000 (0000ms, 0695ms total)
T1DC0 001:733 JLINK_WriteMem(0x20000000, 0x0180 Bytes, ...) -- Data:  00 BE 0A E0 0D 78 2D 06 68 40 08 24 40 00 00 D3 ... -- CPU_WriteMem(384 bytes @ 0x20000000)  returns 0x180 (0012ms, 0707ms total)
T1DC0 001:745 JLINK_WriteReg(R0, 0x08000000)  returns 0x00 (0000ms, 0707ms total)
T1DC0 001:745 JLINK_WriteReg(R1, 0x007A1200)  returns 0x00 (0000ms, 0707ms total)
T1DC0 001:745 JLINK_WriteReg(R2, 0x00000002)  returns 0x00 (0000ms, 0707ms total)
T1DC0 001:745 JLINK_WriteReg(R3, 0x00000000)  returns 0x00 (0000ms, 0707ms total)
T1DC0 001:745 JLINK_WriteReg(R4, 0x00000000)  returns 0x00 (0000ms, 0707ms total)
T1DC0 001:745 JLINK_WriteReg(R5, 0x00000000)  returns 0x00 (0000ms, 0707ms total)
T1DC0 001:745 JLINK_WriteReg(R6, 0x00000000)  returns 0x00 (0000ms, 0707ms total)
T1DC0 001:745 JLINK_WriteReg(R7, 0x00000000)  returns 0x00 (0000ms, 0707ms total)
T1DC0 001:745 JLINK_WriteReg(R8, 0x00000000)  returns 0x00 (0000ms, 0707ms total)
T1DC0 001:745 JLINK_WriteReg(R9, 0x2000017C)  returns 0x00 (0000ms, 0707ms total)
T1DC0 001:745 JLINK_WriteReg(R10, 0x00000000)  returns 0x00 (0000ms, 0707ms total)
T1DC0 001:745 JLINK_WriteReg(R11, 0x00000000)  returns 0x00 (0000ms, 0707ms total)
T1DC0 001:746 JLINK_WriteReg(R12, 0x00000000)  returns 0x00 (0000ms, 0707ms total)
T1DC0 001:746 JLINK_WriteReg(R13 (SP), 0x20001000)  returns 0x00 (0000ms, 0707ms total)
T1DC0 001:746 JLINK_WriteReg(R14, 0x20000001)  returns 0x00 (0000ms, 0707ms total)
T1DC0 001:746 JLINK_WriteReg(R15 (PC), 0x20000054)  returns 0x00 (0000ms, 0707ms total)
T1DC0 001:746 JLINK_WriteReg(XPSR, 0x01000000)  returns 0x00 (0000ms, 0707ms total)
T1DC0 001:746 JLINK_WriteReg(MSP, 0x20001000)  returns 0x00 (0000ms, 0707ms total)
T1DC0 001:746 JLINK_WriteReg(PSP, 0x20001000)  returns 0x00 (0000ms, 0707ms total)
T1DC0 001:746 JLINK_WriteReg(CFBP, 0x00000000)  returns 0x00 (0000ms, 0707ms total)
T1DC0 001:746 JLINK_SetBPEx(Addr = 0x20000000, Type = 0xFFFFFFF2) -- CPU_ReadMem(2 bytes @ 0x20000000)  returns 0x00000007 (0001ms, 0708ms total)
T1DC0 001:747 JLINK_Go() -- CPU_WriteMem(2 bytes @ 0x20000000) (0005ms, 0713ms total)
T1DC0 001:752 JLINK_IsHalted() -- CPU_ReadMem(2 bytes @ 0x20000000)  returns TRUE (0010ms, 0723ms total)
T1DC0 001:762 JLINK_ReadReg(R15 (PC))  returns 0x20000000 (0000ms, 0713ms total)
T1DC0 001:762 JLINK_ClrBPEx(BPHandle = 0x00000007)  returns 0x00 (0000ms, 0713ms total)
T1DC0 001:762 JLINK_ReadReg(R0)  returns 0x00000000 (0000ms, 0713ms total)
T1DC0 001:763 JLINK_WriteMem(0x20000180, 0x0400 Bytes, ...) -- Data:  40 0B 00 20 E5 2E 00 08 69 0B 00 08 6B 0B 00 08 ... -- CPU_WriteMem(1024 bytes @ 0x20000180)  returns 0x400 (0029ms, 0742ms total)
T1DC0 001:792 JLINK_WriteReg(R0, 0x08000000)  returns 0x00 (0000ms, 0742ms total)
T1DC0 001:792 JLINK_WriteReg(R1, 0x00000400)  returns 0x00 (0000ms, 0742ms total)
T1DC0 001:792 JLINK_WriteReg(R2, 0x20000180)  returns 0x00 (0000ms, 0742ms total)
T1DC0 001:792 JLINK_WriteReg(R3, 0x00000000)  returns 0x00 (0000ms, 0742ms total)
T1DC0 001:792 JLINK_WriteReg(R4, 0x00000000)  returns 0x00 (0000ms, 0742ms total)
T1DC0 001:792 JLINK_WriteReg(R5, 0x00000000)  returns 0x00 (0000ms, 0742ms total)
T1DC0 001:792 JLINK_WriteReg(R6, 0x00000000)  returns 0x00 (0000ms, 0742ms total)
T1DC0 001:792 JLINK_WriteReg(R7, 0x00000000)  returns 0x00 (0000ms, 0742ms total)
T1DC0 001:792 JLINK_WriteReg(R8, 0x00000000)  returns 0x00 (0000ms, 0742ms total)
T1DC0 001:792 JLINK_WriteReg(R9, 0x2000017C)  returns 0x00 (0000ms, 0742ms total)
T1DC0 001:792 JLINK_WriteReg(R10, 0x00000000)  returns 0x00 (0000ms, 0742ms total)
T1DC0 001:792 JLINK_WriteReg(R11, 0x00000000)  returns 0x00 (0000ms, 0742ms total)
T1DC0 001:792 JLINK_WriteReg(R12, 0x00000000)  returns 0x00 (0000ms, 0742ms total)
T1DC0 001:792 JLINK_WriteReg(R13 (SP), 0x20001000)  returns 0x00 (0000ms, 0742ms total)
T1DC0 001:792 JLINK_WriteReg(R14, 0x20000001)  returns 0x00 (0001ms, 0743ms total)
T1DC0 001:793 JLINK_WriteReg(R15 (PC), 0x20000108)  returns 0x00 (0000ms, 0743ms total)
T1DC0 001:793 JLINK_WriteReg(XPSR, 0x01000000)  returns 0x00 (0000ms, 0743ms total)
T1DC0 001:793 JLINK_WriteReg(MSP, 0x20001000)  returns 0x00 (0000ms, 0743ms total)
T1DC0 001:793 JLINK_WriteReg(PSP, 0x20001000)  returns 0x00 (0000ms, 0743ms total)
T1DC0 001:793 JLINK_WriteReg(CFBP, 0x00000000)  returns 0x00 (0000ms, 0743ms total)
T1DC0 001:793 JLINK_SetBPEx(Addr = 0x20000000, Type = 0xFFFFFFF2)  returns 0x00000008 (0000ms, 0743ms total)
T1DC0 001:793 JLINK_Go() (0003ms, 0746ms total)
T1DC0 001:796 JLINK_IsHalted()  returns FALSE (0002ms, 0748ms total)
T1DC0 001:921 JLINK_IsHalted() -- CPU_ReadMem(2 bytes @ 0x20000000)  returns TRUE (0009ms, 0755ms total)
T1DC0 001:930 JLINK_ReadReg(R15 (PC))  returns 0x20000000 (0000ms, 0746ms total)
T1DC0 001:930 JLINK_ClrBPEx(BPHandle = 0x00000008)  returns 0x00 (0000ms, 0746ms total)
T1DC0 001:930 JLINK_ReadReg(R0)  returns 0x00000000 (0000ms, 0746ms total)
T1DC0 001:931 JLINK_WriteMem(0x20000180, 0x0400 Bytes, ...) -- Data:  18 FA FF 20 02 F0 15 FA 01 20 02 F0 12 FA 00 20 ... -- CPU_WriteMem(1024 bytes @ 0x20000180)  returns 0x400 (0027ms, 0773ms total)
T1DC0 001:958 JLINK_WriteReg(R0, 0x08000400)  returns 0x00 (0000ms, 0773ms total)
T1DC0 001:958 JLINK_WriteReg(R1, 0x00000400)  returns 0x00 (0000ms, 0773ms total)
T1DC0 001:958 JLINK_WriteReg(R2, 0x20000180)  returns 0x00 (0000ms, 0773ms total)
T1DC0 001:958 JLINK_WriteReg(R3, 0x00000000)  returns 0x00 (0000ms, 0773ms total)
T1DC0 001:958 JLINK_WriteReg(R4, 0x00000000)  returns 0x00 (0000ms, 0773ms total)
T1DC0 001:958 JLINK_WriteReg(R5, 0x00000000)  returns 0x00 (0000ms, 0773ms total)
T1DC0 001:958 JLINK_WriteReg(R6, 0x00000000)  returns 0x00 (0000ms, 0773ms total)
T1DC0 001:958 JLINK_WriteReg(R7, 0x00000000)  returns 0x00 (0000ms, 0773ms total)
T1DC0 001:958 JLINK_WriteReg(R8, 0x00000000)  returns 0x00 (0000ms, 0773ms total)
T1DC0 001:958 JLINK_WriteReg(R9, 0x2000017C)  returns 0x00 (0000ms, 0773ms total)
T1DC0 001:958 JLINK_WriteReg(R10, 0x00000000)  returns 0x00 (0000ms, 0773ms total)
T1DC0 001:958 JLINK_WriteReg(R11, 0x00000000)  returns 0x00 (0000ms, 0773ms total)
T1DC0 001:958 JLINK_WriteReg(R12, 0x00000000)  returns 0x00 (0000ms, 0773ms total)
T1DC0 001:958 JLINK_WriteReg(R13 (SP), 0x20001000)  returns 0x00 (0000ms, 0773ms total)
T1DC0 001:958 JLINK_WriteReg(R14, 0x20000001)  returns 0x00 (0000ms, 0773ms total)
T1DC0 001:958 JLINK_WriteReg(R15 (PC), 0x20000108)  returns 0x00 (0000ms, 0773ms total)
T1DC0 001:958 JLINK_WriteReg(XPSR, 0x01000000)  returns 0x00 (0000ms, 0773ms total)
T1DC0 001:958 JLINK_WriteReg(MSP, 0x20001000)  returns 0x00 (0000ms, 0773ms total)
T1DC0 001:958 JLINK_WriteReg(PSP, 0x20001000)  returns 0x00 (0000ms, 0773ms total)
T1DC0 001:958 JLINK_WriteReg(CFBP, 0x00000000)  returns 0x00 (0001ms, 0774ms total)
T1DC0 001:959 JLINK_SetBPEx(Addr = 0x20000000, Type = 0xFFFFFFF2)  returns 0x00000009 (0000ms, 0774ms total)
T1DC0 001:959 JLINK_Go() (0003ms, 0777ms total)
T1DC0 001:962 JLINK_IsHalted()  returns FALSE (0001ms, 0778ms total)
T1DC0 001:981 JLINK_IsHalted() -- CPU_ReadMem(2 bytes @ 0x20000000)  returns TRUE (0009ms, 0786ms total)
T1DC0 001:990 JLINK_ReadReg(R15 (PC))  returns 0x20000000 (0000ms, 0777ms total)
T1DC0 001:990 JLINK_ClrBPEx(BPHandle = 0x00000009)  returns 0x00 (0000ms, 0777ms total)
T1DC0 001:990 JLINK_ReadReg(R0)  returns 0x00000000 (0000ms, 0777ms total)
T1DC0 001:991 JLINK_WriteMem(0x20000180, 0x0400 Bytes, ...) -- Data:  90 F8 45 00 8D F8 C5 00 99 48 90 F8 46 00 8D F8 ... -- CPU_WriteMem(1024 bytes @ 0x20000180)  returns 0x400 (0027ms, 0804ms total)
T1DC0 002:018 JLINK_WriteReg(R0, 0x08000800)  returns 0x00 (0000ms, 0804ms total)
T1DC0 002:018 JLINK_WriteReg(R1, 0x00000400)  returns 0x00 (0000ms, 0804ms total)
T1DC0 002:018 JLINK_WriteReg(R2, 0x20000180)  returns 0x00 (0000ms, 0804ms total)
T1DC0 002:018 JLINK_WriteReg(R3, 0x00000000)  returns 0x00 (0000ms, 0804ms total)
T1DC0 002:018 JLINK_WriteReg(R4, 0x00000000)  returns 0x00 (0000ms, 0804ms total)
T1DC0 002:018 JLINK_WriteReg(R5, 0x00000000)  returns 0x00 (0000ms, 0804ms total)
T1DC0 002:018 JLINK_WriteReg(R6, 0x00000000)  returns 0x00 (0000ms, 0804ms total)
T1DC0 002:018 JLINK_WriteReg(R7, 0x00000000)  returns 0x00 (0000ms, 0804ms total)
T1DC0 002:018 JLINK_WriteReg(R8, 0x00000000)  returns 0x00 (0000ms, 0804ms total)
T1DC0 002:018 JLINK_WriteReg(R9, 0x2000017C)  returns 0x00 (0000ms, 0804ms total)
T1DC0 002:018 JLINK_WriteReg(R10, 0x00000000)  returns 0x00 (0000ms, 0804ms total)
T1DC0 002:018 JLINK_WriteReg(R11, 0x00000000)  returns 0x00 (0000ms, 0804ms total)
T1DC0 002:018 JLINK_WriteReg(R12, 0x00000000)  returns 0x00 (0000ms, 0804ms total)
T1DC0 002:018 JLINK_WriteReg(R13 (SP), 0x20001000)  returns 0x00 (0000ms, 0804ms total)
T1DC0 002:018 JLINK_WriteReg(R14, 0x20000001)  returns 0x00 (0000ms, 0804ms total)
T1DC0 002:018 JLINK_WriteReg(R15 (PC), 0x20000108)  returns 0x00 (0000ms, 0804ms total)
T1DC0 002:018 JLINK_WriteReg(XPSR, 0x01000000)  returns 0x00 (0000ms, 0804ms total)
T1DC0 002:018 JLINK_WriteReg(MSP, 0x20001000)  returns 0x00 (0000ms, 0804ms total)
T1DC0 002:018 JLINK_WriteReg(PSP, 0x20001000)  returns 0x00 (0000ms, 0804ms total)
T1DC0 002:018 JLINK_WriteReg(CFBP, 0x00000000)  returns 0x00 (0000ms, 0804ms total)
T1DC0 002:018 JLINK_SetBPEx(Addr = 0x20000000, Type = 0xFFFFFFF2)  returns 0x0000000A (0000ms, 0804ms total)
T1DC0 002:018 JLINK_Go() (0004ms, 0808ms total)
T1DC0 002:022 JLINK_IsHalted()  returns FALSE (0001ms, 0809ms total)
T1DC0 002:042 JLINK_IsHalted() -- CPU_ReadMem(2 bytes @ 0x20000000)  returns TRUE (0009ms, 0817ms total)
T1DC0 002:051 JLINK_ReadReg(R15 (PC))  returns 0x20000000 (0000ms, 0808ms total)
T1DC0 002:051 JLINK_ClrBPEx(BPHandle = 0x0000000A)  returns 0x00 (0000ms, 0808ms total)
T1DC0 002:051 JLINK_ReadReg(R0)  returns 0x00000000 (0000ms, 0808ms total)
T1DC0 002:052 JLINK_WriteMem(0x20000180, 0x0400 Bytes, ...) -- Data:  08 60 08 46 00 68 40 F4 A0 50 08 60 58 48 09 1F ... -- CPU_WriteMem(1024 bytes @ 0x20000180)  returns 0x400 (0029ms, 0837ms total)
T1DC0 002:081 JLINK_WriteReg(R0, 0x08000C00)  returns 0x00 (0000ms, 0837ms total)
T1DC0 002:081 JLINK_WriteReg(R1, 0x00000400)  returns 0x00 (0000ms, 0837ms total)
T1DC0 002:081 JLINK_WriteReg(R2, 0x20000180)  returns 0x00 (0000ms, 0837ms total)
T1DC0 002:081 JLINK_WriteReg(R3, 0x00000000)  returns 0x00 (0000ms, 0837ms total)
T1DC0 002:081 JLINK_WriteReg(R4, 0x00000000)  returns 0x00 (0000ms, 0837ms total)
T1DC0 002:081 JLINK_WriteReg(R5, 0x00000000)  returns 0x00 (0000ms, 0837ms total)
T1DC0 002:081 JLINK_WriteReg(R6, 0x00000000)  returns 0x00 (0000ms, 0837ms total)
T1DC0 002:081 JLINK_WriteReg(R7, 0x00000000)  returns 0x00 (0000ms, 0837ms total)
T1DC0 002:081 JLINK_WriteReg(R8, 0x00000000)  returns 0x00 (0000ms, 0837ms total)
T1DC0 002:081 JLINK_WriteReg(R9, 0x2000017C)  returns 0x00 (0000ms, 0837ms total)
T1DC0 002:081 JLINK_WriteReg(R10, 0x00000000)  returns 0x00 (0000ms, 0837ms total)
T1DC0 002:081 JLINK_WriteReg(R11, 0x00000000)  returns 0x00 (0000ms, 0837ms total)
T1DC0 002:081 JLINK_WriteReg(R12, 0x00000000)  returns 0x00 (0000ms, 0837ms total)
T1DC0 002:081 JLINK_WriteReg(R13 (SP), 0x20001000)  returns 0x00 (0000ms, 0837ms total)
T1DC0 002:081 JLINK_WriteReg(R14, 0x20000001)  returns 0x00 (0000ms, 0837ms total)
T1DC0 002:081 JLINK_WriteReg(R15 (PC), 0x20000108)  returns 0x00 (0000ms, 0837ms total)
T1DC0 002:081 JLINK_WriteReg(XPSR, 0x01000000)  returns 0x00 (0000ms, 0837ms total)
T1DC0 002:081 JLINK_WriteReg(MSP, 0x20001000)  returns 0x00 (0000ms, 0837ms total)
T1DC0 002:081 JLINK_WriteReg(PSP, 0x20001000)  returns 0x00 (0000ms, 0837ms total)
T1DC0 002:081 JLINK_WriteReg(CFBP, 0x00000000)  returns 0x00 (0000ms, 0837ms total)
T1DC0 002:081 JLINK_SetBPEx(Addr = 0x20000000, Type = 0xFFFFFFF2)  returns 0x0000000B (0000ms, 0837ms total)
T1DC0 002:081 JLINK_Go() (0004ms, 0841ms total)
T1DC0 002:085 JLINK_IsHalted()  returns FALSE (0001ms, 0842ms total)
T1DC0 002:108 JLINK_IsHalted() -- CPU_ReadMem(2 bytes @ 0x20000000)  returns TRUE (0009ms, 0850ms total)
T1DC0 002:117 JLINK_ReadReg(R15 (PC))  returns 0x20000000 (0000ms, 0841ms total)
T1DC0 002:117 JLINK_ClrBPEx(BPHandle = 0x0000000B)  returns 0x00 (0000ms, 0841ms total)
T1DC0 002:117 JLINK_ReadReg(R0)  returns 0x00000000 (0000ms, 0841ms total)
T1DC0 002:117 JLINK_WriteMem(0x20000180, 0x0400 Bytes, ...) -- Data:  00 93 01 93 02 93 00 22 09 E0 00 F0 0F 05 13 46 ... -- CPU_WriteMem(1024 bytes @ 0x20000180)  returns 0x400 (0028ms, 0869ms total)
T1DC0 002:145 JLINK_WriteReg(R0, 0x08001000)  returns 0x00 (0000ms, 0869ms total)
T1DC0 002:145 JLINK_WriteReg(R1, 0x00000400)  returns 0x00 (0000ms, 0869ms total)
T1DC0 002:145 JLINK_WriteReg(R2, 0x20000180)  returns 0x00 (0000ms, 0869ms total)
T1DC0 002:145 JLINK_WriteReg(R3, 0x00000000)  returns 0x00 (0000ms, 0869ms total)
T1DC0 002:145 JLINK_WriteReg(R4, 0x00000000)  returns 0x00 (0000ms, 0869ms total)
T1DC0 002:145 JLINK_WriteReg(R5, 0x00000000)  returns 0x00 (0000ms, 0869ms total)
T1DC0 002:145 JLINK_WriteReg(R6, 0x00000000)  returns 0x00 (0000ms, 0869ms total)
T1DC0 002:145 JLINK_WriteReg(R7, 0x00000000)  returns 0x00 (0000ms, 0869ms total)
T1DC0 002:145 JLINK_WriteReg(R8, 0x00000000)  returns 0x00 (0000ms, 0869ms total)
T1DC0 002:145 JLINK_WriteReg(R9, 0x2000017C)  returns 0x00 (0000ms, 0869ms total)
T1DC0 002:145 JLINK_WriteReg(R10, 0x00000000)  returns 0x00 (0000ms, 0869ms total)
T1DC0 002:145 JLINK_WriteReg(R11, 0x00000000)  returns 0x00 (0000ms, 0869ms total)
T1DC0 002:145 JLINK_WriteReg(R12, 0x00000000)  returns 0x00 (0000ms, 0869ms total)
T1DC0 002:145 JLINK_WriteReg(R13 (SP), 0x20001000)  returns 0x00 (0000ms, 0869ms total)
T1DC0 002:145 JLINK_WriteReg(R14, 0x20000001)  returns 0x00 (0000ms, 0869ms total)
T1DC0 002:145 JLINK_WriteReg(R15 (PC), 0x20000108)  returns 0x00 (0000ms, 0869ms total)
T1DC0 002:145 JLINK_WriteReg(XPSR, 0x01000000)  returns 0x00 (0000ms, 0869ms total)
T1DC0 002:145 JLINK_WriteReg(MSP, 0x20001000)  returns 0x00 (0000ms, 0869ms total)
T1DC0 002:145 JLINK_WriteReg(PSP, 0x20001000)  returns 0x00 (0000ms, 0869ms total)
T1DC0 002:145 JLINK_WriteReg(CFBP, 0x00000000)  returns 0x00 (0000ms, 0869ms total)
T1DC0 002:145 JLINK_SetBPEx(Addr = 0x20000000, Type = 0xFFFFFFF2)  returns 0x0000000C (0000ms, 0869ms total)
T1DC0 002:145 JLINK_Go() (0004ms, 0873ms total)
T1DC0 002:149 JLINK_IsHalted()  returns FALSE (0001ms, 0874ms total)
T1DC0 002:162 JLINK_IsHalted() -- CPU_ReadMem(2 bytes @ 0x20000000)  returns TRUE (0009ms, 0882ms total)
T1DC0 002:171 JLINK_ReadReg(R15 (PC))  returns 0x20000000 (0000ms, 0873ms total)
T1DC0 002:171 JLINK_ClrBPEx(BPHandle = 0x0000000C)  returns 0x00 (0000ms, 0873ms total)
T1DC0 002:171 JLINK_ReadReg(R0)  returns 0x00000000 (0000ms, 0873ms total)
T1DC0 002:172 JLINK_WriteMem(0x20000180, 0x0400 Bytes, ...) -- Data:  0C D2 90 ED 00 0A DF ED 3D 0A B4 EE E0 0A F1 EE ... -- CPU_WriteMem(1024 bytes @ 0x20000180)  returns 0x400 (0027ms, 0900ms total)
T1DC0 002:199 JLINK_WriteReg(R0, 0x08001400)  returns 0x00 (0000ms, 0900ms total)
T1DC0 002:199 JLINK_WriteReg(R1, 0x00000400)  returns 0x00 (0000ms, 0900ms total)
T1DC0 002:199 JLINK_WriteReg(R2, 0x20000180)  returns 0x00 (0000ms, 0900ms total)
T1DC0 002:199 JLINK_WriteReg(R3, 0x00000000)  returns 0x00 (0000ms, 0900ms total)
T1DC0 002:199 JLINK_WriteReg(R4, 0x00000000)  returns 0x00 (0000ms, 0900ms total)
T1DC0 002:199 JLINK_WriteReg(R5, 0x00000000)  returns 0x00 (0000ms, 0900ms total)
T1DC0 002:199 JLINK_WriteReg(R6, 0x00000000)  returns 0x00 (0000ms, 0900ms total)
T1DC0 002:199 JLINK_WriteReg(R7, 0x00000000)  returns 0x00 (0000ms, 0900ms total)
T1DC0 002:199 JLINK_WriteReg(R8, 0x00000000)  returns 0x00 (0000ms, 0900ms total)
T1DC0 002:199 JLINK_WriteReg(R9, 0x2000017C)  returns 0x00 (0000ms, 0900ms total)
T1DC0 002:199 JLINK_WriteReg(R10, 0x00000000)  returns 0x00 (0000ms, 0900ms total)
T1DC0 002:199 JLINK_WriteReg(R11, 0x00000000)  returns 0x00 (0000ms, 0900ms total)
T1DC0 002:199 JLINK_WriteReg(R12, 0x00000000)  returns 0x00 (0000ms, 0900ms total)
T1DC0 002:199 JLINK_WriteReg(R13 (SP), 0x20001000)  returns 0x00 (0000ms, 0900ms total)
T1DC0 002:199 JLINK_WriteReg(R14, 0x20000001)  returns 0x00 (0000ms, 0900ms total)
T1DC0 002:199 JLINK_WriteReg(R15 (PC), 0x20000108)  returns 0x00 (0000ms, 0900ms total)
T1DC0 002:199 JLINK_WriteReg(XPSR, 0x01000000)  returns 0x00 (0000ms, 0900ms total)
T1DC0 002:199 JLINK_WriteReg(MSP, 0x20001000)  returns 0x00 (0000ms, 0900ms total)
T1DC0 002:199 JLINK_WriteReg(PSP, 0x20001000)  returns 0x00 (0000ms, 0900ms total)
T1DC0 002:199 JLINK_WriteReg(CFBP, 0x00000000)  returns 0x00 (0001ms, 0901ms total)
T1DC0 002:200 JLINK_SetBPEx(Addr = 0x20000000, Type = 0xFFFFFFF2)  returns 0x0000000D (0000ms, 0901ms total)
T1DC0 002:200 JLINK_Go() (0003ms, 0904ms total)
T1DC0 002:203 JLINK_IsHalted()  returns FALSE (0001ms, 0905ms total)
T1DC0 002:265 JLINK_IsHalted() -- CPU_ReadMem(2 bytes @ 0x20000000)  returns TRUE (0009ms, 0913ms total)
T1DC0 002:274 JLINK_ReadReg(R15 (PC))  returns 0x20000000 (0000ms, 0904ms total)
T1DC0 002:274 JLINK_ClrBPEx(BPHandle = 0x0000000D)  returns 0x00 (0000ms, 0904ms total)
T1DC0 002:274 JLINK_ReadReg(R0)  returns 0x00000000 (0000ms, 0904ms total)
T1DC0 002:275 JLINK_WriteMem(0x20000180, 0x0400 Bytes, ...) -- Data:  10 B5 2D ED 04 8B B0 EE 40 9A B0 EE 60 8A F0 EE ... -- CPU_WriteMem(1024 bytes @ 0x20000180)  returns 0x400 (0029ms, 0933ms total)
T1DC0 002:304 JLINK_WriteReg(R0, 0x08001800)  returns 0x00 (0000ms, 0933ms total)
T1DC0 002:304 JLINK_WriteReg(R1, 0x00000400)  returns 0x00 (0000ms, 0933ms total)
T1DC0 002:304 JLINK_WriteReg(R2, 0x20000180)  returns 0x00 (0000ms, 0933ms total)
T1DC0 002:304 JLINK_WriteReg(R3, 0x00000000)  returns 0x00 (0000ms, 0933ms total)
T1DC0 002:304 JLINK_WriteReg(R4, 0x00000000)  returns 0x00 (0000ms, 0933ms total)
T1DC0 002:304 JLINK_WriteReg(R5, 0x00000000)  returns 0x00 (0000ms, 0933ms total)
T1DC0 002:304 JLINK_WriteReg(R6, 0x00000000)  returns 0x00 (0000ms, 0933ms total)
T1DC0 002:304 JLINK_WriteReg(R7, 0x00000000)  returns 0x00 (0000ms, 0933ms total)
T1DC0 002:304 JLINK_WriteReg(R8, 0x00000000)  returns 0x00 (0000ms, 0933ms total)
T1DC0 002:304 JLINK_WriteReg(R9, 0x2000017C)  returns 0x00 (0000ms, 0933ms total)
T1DC0 002:304 JLINK_WriteReg(R10, 0x00000000)  returns 0x00 (0000ms, 0933ms total)
T1DC0 002:304 JLINK_WriteReg(R11, 0x00000000)  returns 0x00 (0000ms, 0933ms total)
T1DC0 002:304 JLINK_WriteReg(R12, 0x00000000)  returns 0x00 (0000ms, 0933ms total)
T1DC0 002:304 JLINK_WriteReg(R13 (SP), 0x20001000)  returns 0x00 (0000ms, 0933ms total)
T1DC0 002:304 JLINK_WriteReg(R14, 0x20000001)  returns 0x00 (0000ms, 0933ms total)
T1DC0 002:304 JLINK_WriteReg(R15 (PC), 0x20000108)  returns 0x00 (0000ms, 0933ms total)
T1DC0 002:304 JLINK_WriteReg(XPSR, 0x01000000)  returns 0x00 (0000ms, 0933ms total)
T1DC0 002:304 JLINK_WriteReg(MSP, 0x20001000)  returns 0x00 (0000ms, 0933ms total)
T1DC0 002:305 JLINK_WriteReg(PSP, 0x20001000)  returns 0x00 (0000ms, 0934ms total)
T1DC0 002:305 JLINK_WriteReg(CFBP, 0x00000000)  returns 0x00 (0000ms, 0934ms total)
T1DC0 002:305 JLINK_SetBPEx(Addr = 0x20000000, Type = 0xFFFFFFF2)  returns 0x0000000E (0000ms, 0934ms total)
T1DC0 002:305 JLINK_Go() (0004ms, 0938ms total)
T1DC0 002:309 JLINK_IsHalted()  returns FALSE (0001ms, 0939ms total)
T1DC0 002:388 JLINK_IsHalted() -- CPU_ReadMem(2 bytes @ 0x20000000)  returns TRUE (0009ms, 0947ms total)
T1DC0 002:397 JLINK_ReadReg(R15 (PC))  returns 0x20000000 (0000ms, 0938ms total)
T1DC0 002:397 JLINK_ClrBPEx(BPHandle = 0x0000000E)  returns 0x00 (0000ms, 0938ms total)
T1DC0 002:397 JLINK_ReadReg(R0)  returns 0x00000000 (0000ms, 0938ms total)
T1DC0 002:398 JLINK_WriteMem(0x20000180, 0x0400 Bytes, ...) -- Data:  05 F0 F4 FD 41 EC 1F 0B B0 EE 4F 0A F0 EE 6F 0A ... -- CPU_WriteMem(1024 bytes @ 0x20000180)  returns 0x400 (0027ms, 0965ms total)
T1DC0 002:425 JLINK_WriteReg(R0, 0x08001C00)  returns 0x00 (0000ms, 0965ms total)
T1DC0 002:425 JLINK_WriteReg(R1, 0x00000400)  returns 0x00 (0000ms, 0965ms total)
T1DC0 002:425 JLINK_WriteReg(R2, 0x20000180)  returns 0x00 (0000ms, 0965ms total)
T1DC0 002:425 JLINK_WriteReg(R3, 0x00000000)  returns 0x00 (0000ms, 0965ms total)
T1DC0 002:425 JLINK_WriteReg(R4, 0x00000000)  returns 0x00 (0000ms, 0965ms total)
T1DC0 002:425 JLINK_WriteReg(R5, 0x00000000)  returns 0x00 (0000ms, 0965ms total)
